
T0F8C 000:110 SEGGER J-Link V4.80g Log File (0003ms, 0039ms total)
T0F8C 000:110 DLL Compiled: Feb 13 2014 20:50:02 (0003ms, 0039ms total)
T0F8C 000:110 Logging started @ 2017-07-13 16:09 (0003ms, 0039ms total)
T0F8C 000:114 JLINK_SetWarnOutHandler(...) (0000ms, 0039ms total)
T0F8C 000:114 JLINK_OpenEx(...)
Firmware: J-Link ARM V8 compiled Nov 28 2014 13:44:46
Hardware: V8.00
S/N: 17935099
Feature(s): RDI,FlashDL,FlashBP,JFlash  returns O.K. (0031ms, 0070ms total)
T0F8C 000:145 JLINK_SetErrorOutHandler(...) (0000ms, 0070ms total)
T0F8C 000:145 JLINK_ExecCommand("ProjectFile = "F:\CS9929SY\8833Ö÷°å´Ó»ú\Project\JLinkSettings.ini"", ...)  returns 0x00 (0000ms, 0070ms total)
T0F8C 000:146 JLINK_ExecCommand("Device = STM32F103ZE", ...)Device "STM32F103ZE" selected (512 KB flash, 64 KB RAM).  returns 0x00 (0001ms, 0071ms total)
T0F8C 000:147 JLINK_ExecCommand("DisableConnectionTimeout", ...)  returns 0x01 (0000ms, 0071ms total)
T0F8C 000:147 JLINK_GetHardwareVersion()  returns 0x13880 (0000ms, 0071ms total)
T0F8C 000:147 JLINK_GetDLLVersion()  returns 48007 (0000ms, 0071ms total)
T0F8C 000:147 JLINK_GetFirmwareString(...) (0000ms, 0071ms total)
T0F8C 000:147 JLINK_GetDLLVersion()  returns 48007 (0000ms, 0071ms total)
T0F8C 000:147 JLINK_GetCompileDateTime() (0000ms, 0071ms total)
T0F8C 000:147 JLINK_GetFirmwareString(...) (0000ms, 0071ms total)
T0F8C 000:147 JLINK_GetHardwareVersion()  returns 0x13880 (0001ms, 0072ms total)
T0F8C 000:148 JLINK_TIF_Select(JLINKARM_TIF_JTAG)  returns 0x00 (0007ms, 0079ms total)
T0F8C 000:155 JLINK_SetSpeed(2000) (0000ms, 0079ms total)
T0F8C 000:155 JLINK_GetIdData(...) >0x2F8 JTAG>TotalIRLen = 9, IRPrint = 0x0011 >0x30 JTAG> >0x210 JTAG> >0x40 JTAG> >0x40 JTAG> >0x40 JTAG> >0x30 JTAG> >0x40 JTAG> >0x40 JTAG> >0x40 JTAG> >0x40 JTAG> >0x40 JTAG> >0x40 JTAG> >0x40 JTAG> >0x40 JTAG> >0x2F8 JTAG>TotalIRLen = 9, IRPrint = 0x0011 >0x30 JTAG> >0x210 JTAG> >0x70 JTAG> >0x40 JTAG> >0x40 JTAG> >0x40 JTAG> >0x50 JTAG> >0x80 JTAG> >0x40 JTAG> >0x30 JTAG> >0x40 JTAG> >0x40 JTAG> >0x30 JTAG> >0x40 JTAG> >0x50 JTAG>
Found Cortex-M3 r1p1, Little endian. -- CPU_WriteMem(4 bytes @ 0xE0002000) -- CPU_ReadMem(4 bytes @ 0xE000EDF0) -- CPU_ReadMem(4 bytes @ 0xE0002000)FPUnit: 6 code (BP) slots and 2 literal slots -- CPU_ReadMem(4 bytes @ 0xE000EDFC) -- CPU_ReadMem(4 bytes @ 0xE0001000) -- CPU_WriteMem(4 bytes @ 0xE0001000) -- CPU_ReadMem(4 bytes @ 0xE00FF010)TPIU fitted. -- CPU_ReadMem(4 bytes @ 0xE00FF014)ETM fitted. -- CPU_ReadMem(4 bytes @ 0xE00FF018) ScanLen=9 NumDevices=2 aId[0]=0x3BA00477 aIrRead[0]=0 aScanLen[0]=0
 aScanRead[0]=0 (0046ms, 0125ms total)
T0F8C 000:201 JLINK_JTAG_GetDeviceID(DeviceIndex = 0)  returns 0x3BA00477 (0000ms, 0125ms total)
T0F8C 000:201 JLINK_JTAG_GetDeviceInfo(DeviceIndex = 0)  returns 0x00 (0000ms, 0125ms total)
T0F8C 000:201 JLINK_JTAG_GetDeviceID(DeviceIndex = 1)  returns 0x6414041 (0000ms, 0125ms total)
T0F8C 000:201 JLINK_JTAG_GetDeviceInfo(DeviceIndex = 1)  returns 0x00 (0000ms, 0125ms total)
T0F8C 000:201 JLINK_GetDeviceFamily()  returns 3 (0000ms, 0125ms total)
T0F8C 000:201 JLINK_ReadMem (0xE00FFFF0, 0x0010 Bytes, ...) -- CPU is running -- CPU_ReadMem(16 bytes @ 0xE00FFFF0) -- Data:  0D 00 00 00 10 00 00 00 05 00 00 00 B1 00 00 00  returns 0x00 (0002ms, 0127ms total)
T0F8C 000:203 JLINK_ReadMem (0xE00FFFD0, 0x0020 Bytes, ...) -- CPU is running -- CPU_ReadMem(32 bytes @ 0xE00FFFD0) -- Data:  00 00 00 00 00 00 00 00 00 00 00 00 00 00 00 00 ...  returns 0x00 (0001ms, 0128ms total)
T0F8C 000:204 JLINK_ReadMem (0xE00FF000, 0x0018 Bytes, ...) -- CPU is running -- CPU_ReadMem(24 bytes @ 0xE00FF000) -- Data:  03 F0 F0 FF 03 20 F0 FF 03 30 F0 FF 03 10 F0 FF ...  returns 0x00 (0001ms, 0129ms total)
T0F8C 000:205 JLINK_ReadMemU32(0xE000ED00, 0x0001 Items, ...) -- CPU is running -- CPU_ReadMem(4 bytes @ 0xE000ED00) -- Data:  31 C2 1F 41  returns 0x01 (0001ms, 0130ms total)
T0F8C 000:206 JLINK_SetResetType(JLINKARM_RESET_TYPE_NORMAL)  returns JLINKARM_RESET_TYPE_NORMAL (0000ms, 0130ms total)
T0F8C 000:206 JLINK_Reset() -- CPU is running -- CPU_WriteMem(4 bytes @ 0xE000EDF0) -- CPU is running -- CPU_WriteMem(4 bytes @ 0xE000EDFC) -- CPU is running -- CPU_WriteMem(4 bytes @ 0xE000ED0C) -- CPU is running -- CPU_ReadMem(4 bytes @ 0xE000EDF0) -- CPU is running -- CPU_ReadMem(4 bytes @ 0xE000EDF0) -- CPU is running -- CPU_ReadMem(4 bytes @ 0xE000EDF0) -- CPU is running -- CPU_ReadMem(4 bytes @ 0xE000EDF0) -- CPU is running -- CPU_ReadMem(4 bytes @ 0xE000EDF0) -- CPU is running
 -- CPU_ReadMem(4 bytes @ 0xE000EDF0) -- CPU is running -- CPU_ReadMem(4 bytes @ 0xE000EDF0) -- CPU is running -- CPU_ReadMem(4 bytes @ 0xE000EDF0) -- CPU is running -- CPU_ReadMem(4 bytes @ 0xE000EDF0) -- CPU is running -- CPU_ReadMem(4 bytes @ 0xE000EDF0) -- CPU is running -- CPU_ReadMem(4 bytes @ 0xE000EDF0) -- CPU is running -- CPU_ReadMem(4 bytes @ 0xE000EDF0) -- CPU is running -- CPU_ReadMem(4 bytes @ 0xE000EDF0) -- CPU is running -- CPU_ReadMem(4 bytes @ 0xE000EDF0) -- CPU is running
 -- CPU_ReadMem(4 bytes @ 0xE000EDF0) -- CPU is running -- CPU_ReadMem(4 bytes @ 0xE000EDF0) -- CPU is running -- CPU_ReadMem(4 bytes @ 0xE000EDF0) -- CPU is running -- CPU_WriteMem(4 bytes @ 0xE000EDF0) -- CPU is running -- CPU_WriteMem(4 bytes @ 0xE000EDFC) -- CPU is running -- CPU_ReadMem(4 bytes @ 0xE000EDF0) >0x80 JTAG> >0x40 JTAG> >0x30 JTAG> >0x40 JTAG> >0x50 JTAG> >0x40 JTAG> -- CPU_WriteMem(4 bytes @ 0xE000EDFC) -- CPU_WriteMem(4 bytes @ 0xE0001028) -- CPU_WriteMem(4 bytes @ 0xE0001038)
 -- CPU_WriteMem(4 bytes @ 0xE0001048) -- CPU_WriteMem(4 bytes @ 0xE0001058) -- CPU_WriteMem(4 bytes @ 0xE0002000) -- CPU_ReadMem(4 bytes @ 0xE000EDFC) -- CPU_ReadMem(4 bytes @ 0xE0001000) (0046ms, 0176ms total)
T0F8C 000:252 JLINK_ReadReg(R15 (PC))  returns 0x0800021C (0000ms, 0176ms total)
T0F8C 000:252 JLINK_ReadReg(XPSR)  returns 0x01000000 (0000ms, 0176ms total)
T0F8C 000:252 JLINK_Halt()  returns 0x00 (0000ms, 0176ms total)
T0F8C 000:252 JLINK_IsHalted()  returns TRUE (0000ms, 0176ms total)
T0F8C 000:252 JLINK_ReadMemU32(0xE000EDF0, 0x0001 Items, ...) -- CPU_ReadMem(4 bytes @ 0xE000EDF0) -- Data:  03 00 03 00  returns 0x01 (0001ms, 0177ms total)
T0F8C 000:253 JLINK_WriteU32(0xE000EDF0, 0xA05F0003) -- CPU_WriteMem(4 bytes @ 0xE000EDF0)  returns 0x00 (0001ms, 0178ms total)
T0F8C 000:254 JLINK_WriteU32(0xE000EDFC, 0x01000000) -- CPU_WriteMem(4 bytes @ 0xE000EDFC)  returns 0x00 (0001ms, 0179ms total)
T0F8C 000:255 JLINK_GetHWStatus(...)  returns 0x00 (0001ms, 0180ms total)
T0F8C 000:256 JLINK_GetNumBPUnits(Type = 0xFFFFFF00)  returns 0x06 (0000ms, 0180ms total)
T0F8C 000:256 JLINK_GetNumBPUnits(Type = 0xF0)  returns 0x2000 (0000ms, 0180ms total)
T0F8C 000:256 JLINK_GetNumWPUnits()  returns 0x04 (0000ms, 0180ms total)
T0F8C 000:256 JLINK_GetSpeed()  returns 0x7D0 (0000ms, 0180ms total)
T0F8C 000:257 JLINK_ReadMemU32(0xE000E004, 0x0001 Items, ...) -- CPU_ReadMem(4 bytes @ 0xE000E004) -- Data:  01 00 00 00  returns 0x01 (0000ms, 0180ms total)
T0F8C 000:257 JLINK_ReadMemU32(0xE000E004, 0x0001 Items, ...) -- CPU_ReadMem(4 bytes @ 0xE000E004) -- Data:  01 00 00 00  returns 0x01 (0001ms, 0181ms total)
T0F8C 000:258 JLINK_WriteMem(0xE0001000, 0x001C Bytes, ...) -- Data:  01 00 00 00 00 00 00 00 00 00 00 00 00 00 00 00 ... -- CPU_WriteMem(28 bytes @ 0xE0001000)  returns 0x1C (0001ms, 0182ms total)
T0F8C 000:259 JLINK_ReadMem (0xE0001000, 0x001C Bytes, ...) -- CPU_ReadMem(28 bytes @ 0xE0001000) -- Data:  01 00 00 40 00 00 00 00 00 00 00 00 00 00 00 00 ...  returns 0x00 (0001ms, 0183ms total)
T0F8C 000:260 JLINK_ReadReg(R15 (PC))  returns 0x0800021C (0000ms, 0183ms total)
T0F8C 000:260 JLINK_ReadReg(XPSR)  returns 0x01000000 (0001ms, 0184ms total)
T0F8C 000:466 JLINK_SetResetType(JLINKARM_RESET_TYPE_NORMAL)  returns JLINKARM_RESET_TYPE_NORMAL (0000ms, 0184ms total)
T0F8C 000:466 JLINK_Reset() -- CPU_WriteMem(4 bytes @ 0xE000EDF0) -- CPU_WriteMem(4 bytes @ 0xE000EDFC) -- CPU_WriteMem(4 bytes @ 0xE000ED0C) -- CPU_ReadMem(4 bytes @ 0xE000EDF0) -- CPU_ReadMem(4 bytes @ 0xE000EDF0) -- CPU_ReadMem(4 bytes @ 0xE000EDF0) -- CPU_ReadMem(4 bytes @ 0xE000EDF0) -- CPU_ReadMem(4 bytes @ 0xE000EDF0) -- CPU_ReadMem(4 bytes @ 0xE000EDF0) -- CPU_ReadMem(4 bytes @ 0xE000EDF0) -- CPU_ReadMem(4 bytes @ 0xE000EDF0) -- CPU_ReadMem(4 bytes @ 0xE000EDF0)
 -- CPU_ReadMem(4 bytes @ 0xE000EDF0) -- CPU_ReadMem(4 bytes @ 0xE000EDF0) -- CPU_ReadMem(4 bytes @ 0xE000EDF0) -- CPU_ReadMem(4 bytes @ 0xE000EDF0) -- CPU_ReadMem(4 bytes @ 0xE000EDF0) -- CPU_ReadMem(4 bytes @ 0xE000EDF0) -- CPU_ReadMem(4 bytes @ 0xE000EDF0) -- CPU_ReadMem(4 bytes @ 0xE000EDF0) -- CPU_ReadMem(4 bytes @ 0xE000EDF0) -- CPU_ReadMem(4 bytes @ 0xE000EDF0) -- CPU_WriteMem(4 bytes @ 0xE000EDF0) -- CPU_WriteMem(4 bytes @ 0xE000EDFC) -- CPU is running -- CPU_ReadMem(4 bytes @ 0xE000EDF0)
 >0x80 JTAG> >0x40 JTAG> >0x30 JTAG> >0x40 JTAG> >0x50 JTAG> >0x40 JTAG> -- CPU_WriteMem(4 bytes @ 0xE000EDFC) -- CPU_WriteMem(4 bytes @ 0xE0001028) -- CPU_WriteMem(4 bytes @ 0xE0001038) -- CPU_WriteMem(4 bytes @ 0xE0001048) -- CPU_WriteMem(4 bytes @ 0xE0001058) -- CPU_WriteMem(4 bytes @ 0xE0002000) -- CPU_ReadMem(4 bytes @ 0xE000EDFC) -- CPU_ReadMem(4 bytes @ 0xE0001000) (0049ms, 0233ms total)
T0F8C 000:515 JLINK_ReadReg(R15 (PC))  returns 0x0800021C (0000ms, 0233ms total)
T0F8C 000:515 JLINK_ReadReg(XPSR)  returns 0x01000000 (0000ms, 0233ms total)
T0F8C 000:929 JLINK_ReadMem (0x0800021C, 0x003C Bytes, ...) -- CPU_ReadMem(128 bytes @ 0x08000200) -- Updating C cache (128 bytes @ 0x08000200) -- Read from C cache (60 bytes @ 0x0800021C) -- Data:  09 48 80 47 09 48 00 47 FE E7 FE E7 FE E7 FE E7 ...  returns 0x00 (0003ms, 0236ms total)
T0F8C 004:114 JLINK_ReadMem (0x200005E4, 0x0002 Bytes, ...) -- CPU_ReadMem(64 bytes @ 0x200005C0) -- Updating C cache (64 bytes @ 0x200005C0) -- Read from C cache (2 bytes @ 0x200005E4) -- Data:  6D FA  returns 0x00 (0008ms, 0244ms total)
T0F8C 004:125 JLINK_ReadMem (0x20000638, 0x0004 Bytes, ...) -- CPU_ReadMem(64 bytes @ 0x20000600) -- Updating C cache (64 bytes @ 0x20000600) -- Read from C cache (4 bytes @ 0x20000638) -- Data:  01 00 00 00  returns 0x00 (0001ms, 0245ms total)
T0F8C 004:128 JLINK_ReadMem (0x2000063C, 0x0004 Bytes, ...) -- Read from C cache (4 bytes @ 0x2000063C) -- Data:  E8 03 00 00  returns 0x00 (0000ms, 0245ms total)
T1794 004:358 JLINK_SetBPEx(Addr = 0x08002E00, Type = 0xFFFFFFF2)  returns 0x00000001 (0000ms, 0245ms total)
T1794 004:358 JLINK_SetBPEx(Addr = 0x08006EEE, Type = 0xFFFFFFF2)  returns 0x00000002 (0000ms, 0245ms total)
T1794 004:358 JLINK_SetBPEx(Addr = 0x08002E06, Type = 0xFFFFFFF2)  returns 0x00000003 (0000ms, 0245ms total)
T1794 004:358 JLINK_SetBPEx(Addr = 0x080070A2, Type = 0xFFFFFFF2)  returns 0x00000004 (0000ms, 0245ms total)
T1794 004:358 JLINK_SetBPEx(Addr = 0x080070A6, Type = 0xFFFFFFF2)  returns 0x00000005 (0000ms, 0245ms total)
T1794 004:358 JLINK_SetBPEx(Addr = 0x08006E4E, Type = 0xFFFFFFF2)  returns 0x00000006 (0000ms, 0245ms total)
T1794 004:358 JLINK_Go() -- CPU_WriteMem(4 bytes @ 0xE0002000) -- CPU_WriteMem(4 bytes @ 0xE0002008) -- CPU_WriteMem(4 bytes @ 0xE000200C) -- CPU_WriteMem(4 bytes @ 0xE0002010) -- CPU_WriteMem(4 bytes @ 0xE0002014) -- CPU_WriteMem(4 bytes @ 0xE0002018) -- CPU_WriteMem(4 bytes @ 0xE000201C) -- CPU_WriteMem(4 bytes @ 0xE0001004) (0007ms, 0252ms total)
T1794 004:466 JLINK_IsHalted()  returns TRUE (0004ms, 0256ms total)
T1794 004:470 JLINK_Halt()  returns 0x00 (0000ms, 0252ms total)
T1794 004:470 JLINK_IsHalted()  returns TRUE (0000ms, 0252ms total)
T1794 004:470 JLINK_IsHalted()  returns TRUE (0000ms, 0252ms total)
T1794 004:470 JLINK_IsHalted()  returns TRUE (0000ms, 0252ms total)
T1794 004:470 JLINK_ReadReg(R15 (PC))  returns 0x08002E00 (0000ms, 0252ms total)
T1794 004:470 JLINK_ReadReg(XPSR)  returns 0x21000000 (0001ms, 0253ms total)
T1794 004:471 JLINK_ClrBPEx(BPHandle = 0x00000001)  returns 0x00 (0000ms, 0253ms total)
T1794 004:471 JLINK_ClrBPEx(BPHandle = 0x00000002)  returns 0x00 (0000ms, 0253ms total)
T1794 004:471 JLINK_ClrBPEx(BPHandle = 0x00000003)  returns 0x00 (0000ms, 0253ms total)
T1794 004:471 JLINK_ClrBPEx(BPHandle = 0x00000004)  returns 0x00 (0000ms, 0253ms total)
T1794 004:471 JLINK_ClrBPEx(BPHandle = 0x00000005)  returns 0x00 (0000ms, 0253ms total)
T1794 004:471 JLINK_ClrBPEx(BPHandle = 0x00000006)  returns 0x00 (0000ms, 0253ms total)
T1794 004:471 JLINK_ReadMemU32(0xE000ED30, 0x0001 Items, ...) -- CPU_ReadMem(4 bytes @ 0xE000ED30) -- Data:  03 00 00 00  returns 0x01 (0001ms, 0254ms total)
T1794 004:472 JLINK_ReadMemU32(0xE0001028, 0x0001 Items, ...) -- CPU_ReadMem(4 bytes @ 0xE0001028) -- Data:  00 00 00 00  returns 0x01 (0000ms, 0254ms total)
T1794 004:472 JLINK_ReadMemU32(0xE0001038, 0x0001 Items, ...) -- CPU_ReadMem(4 bytes @ 0xE0001038) -- Data:  00 02 00 00  returns 0x01 (0001ms, 0255ms total)
T1794 004:473 JLINK_ReadMemU32(0xE0001048, 0x0001 Items, ...) -- CPU_ReadMem(4 bytes @ 0xE0001048) -- Data:  00 00 00 00  returns 0x01 (0001ms, 0256ms total)
T1794 004:474 JLINK_ReadMemU32(0xE0001058, 0x0001 Items, ...) -- CPU_ReadMem(4 bytes @ 0xE0001058) -- Data:  00 00 00 00  returns 0x01 (0001ms, 0257ms total)
T1794 004:475 JLINK_ReadReg(R0)  returns 0x2000B508 (0000ms, 0257ms total)
T1794 004:475 JLINK_ReadReg(R1)  returns 0x2000B508 (0000ms, 0257ms total)
T1794 004:475 JLINK_ReadReg(R2)  returns 0x2000B508 (0000ms, 0257ms total)
T1794 004:475 JLINK_ReadReg(R3)  returns 0x2000B508 (0000ms, 0257ms total)
T1794 004:475 JLINK_ReadReg(R4)  returns 0x00000000 (0000ms, 0257ms total)
T1794 004:475 JLINK_ReadReg(R5)  returns 0x2000B4A4 (0000ms, 0257ms total)
T1794 004:475 JLINK_ReadReg(R6)  returns 0x00000000 (0000ms, 0257ms total)
T1794 004:475 JLINK_ReadReg(R7)  returns 0x00000000 (0000ms, 0257ms total)
T1794 004:475 JLINK_ReadReg(R8)  returns 0x00000000 (0000ms, 0257ms total)
T1794 004:475 JLINK_ReadReg(R9)  returns 0x20000160 (0000ms, 0257ms total)
T1794 004:475 JLINK_ReadReg(R10)  returns 0x0802FF20 (0000ms, 0257ms total)
T1794 004:475 JLINK_ReadReg(R11)  returns 0x00000000 (0000ms, 0257ms total)
T1794 004:475 JLINK_ReadReg(R12)  returns 0x2000B4E4 (0000ms, 0257ms total)
T1794 004:475 JLINK_ReadReg(R13 (SP))  returns 0x2000B908 (0001ms, 0258ms total)
T1794 004:476 JLINK_ReadReg(R14)  returns 0x0800020B (0000ms, 0258ms total)
T1794 004:476 JLINK_ReadReg(R15 (PC))  returns 0x08002E00 (0000ms, 0258ms total)
T1794 004:476 JLINK_ReadReg(XPSR)  returns 0x21000000 (0000ms, 0258ms total)
T1794 004:476 JLINK_ReadReg(MSP)  returns 0x2000B908 (0000ms, 0258ms total)
T1794 004:476 JLINK_ReadReg(PSP)  returns 0x20000800 (0000ms, 0258ms total)
T1794 004:476 JLINK_ReadReg(CFBP)  returns 0x00000000 (0000ms, 0258ms total)
T0F8C 004:476 JLINK_ReadMem (0x08002E00, 0x003C Bytes, ...) -- CPU_ReadMem(64 bytes @ 0x08002E00) -- Updating C cache (64 bytes @ 0x08002E00) -- Read from C cache (60 bytes @ 0x08002E00) -- Data:  08 B5 00 20 00 90 17 F0 5B FC 1A F0 2D FE 02 21 ...  returns 0x00 (0001ms, 0259ms total)
T0F8C 005:302 JLINK_ReadMem (0x20000054, 0x0004 Bytes, ...) -- CPU_ReadMem(64 bytes @ 0x20000040) -- Updating C cache (64 bytes @ 0x20000040) -- Read from C cache (4 bytes @ 0x20000054) -- Data:  00 00 00 00  returns 0x00 (0001ms, 0260ms total)
T1794 006:280 JLINK_SetBPEx(Addr = 0x08006EEE, Type = 0xFFFFFFF2)  returns 0x00000007 (0000ms, 0260ms total)
T1794 006:280 JLINK_SetBPEx(Addr = 0x08002E06, Type = 0xFFFFFFF2)  returns 0x00000008 (0000ms, 0260ms total)
T1794 006:280 JLINK_SetBPEx(Addr = 0x080070A2, Type = 0xFFFFFFF2)  returns 0x00000009 (0000ms, 0260ms total)
T1794 006:280 JLINK_SetBPEx(Addr = 0x080070A6, Type = 0xFFFFFFF2)  returns 0x0000000A (0000ms, 0260ms total)
T1794 006:280 JLINK_SetBPEx(Addr = 0x08006E4E, Type = 0xFFFFFFF2)  returns 0x0000000B (0000ms, 0260ms total)
T1794 006:280 JLINK_Go() -- CPU_WriteMem(4 bytes @ 0xE0002000) -- CPU_WriteMem(4 bytes @ 0xE0002008) -- CPU_WriteMem(4 bytes @ 0xE000200C) -- CPU_WriteMem(4 bytes @ 0xE0002010) -- CPU_WriteMem(4 bytes @ 0xE0002014) -- CPU_WriteMem(4 bytes @ 0xE0002018) -- CPU_WriteMem(4 bytes @ 0xE000201C) (0005ms, 0265ms total)
T1794 006:386 JLINK_IsHalted()  returns TRUE (0005ms, 0270ms total)
T1794 006:391 JLINK_Halt()  returns 0x00 (0000ms, 0265ms total)
T1794 006:391 JLINK_IsHalted()  returns TRUE (0000ms, 0265ms total)
T1794 006:391 JLINK_IsHalted()  returns TRUE (0000ms, 0265ms total)
T1794 006:391 JLINK_IsHalted()  returns TRUE (0000ms, 0265ms total)
T1794 006:391 JLINK_ReadReg(R15 (PC))  returns 0x08002E06 (0000ms, 0265ms total)
T1794 006:391 JLINK_ReadReg(XPSR)  returns 0x61000000 (0000ms, 0265ms total)
T1794 006:391 JLINK_ClrBPEx(BPHandle = 0x00000007)  returns 0x00 (0000ms, 0265ms total)
T1794 006:391 JLINK_ClrBPEx(BPHandle = 0x00000008)  returns 0x00 (0000ms, 0265ms total)
T1794 006:391 JLINK_ClrBPEx(BPHandle = 0x00000009)  returns 0x00 (0000ms, 0265ms total)
T1794 006:391 JLINK_ClrBPEx(BPHandle = 0x0000000A)  returns 0x00 (0000ms, 0265ms total)
T1794 006:391 JLINK_ClrBPEx(BPHandle = 0x0000000B)  returns 0x00 (0000ms, 0265ms total)
T1794 006:391 JLINK_ReadMemU32(0xE000ED30, 0x0001 Items, ...) -- CPU_ReadMem(4 bytes @ 0xE000ED30) -- Data:  03 00 00 00  returns 0x01 (0001ms, 0266ms total)
T1794 006:392 JLINK_ReadMemU32(0xE0001028, 0x0001 Items, ...) -- CPU_ReadMem(4 bytes @ 0xE0001028) -- Data:  00 00 00 00  returns 0x01 (0001ms, 0267ms total)
T1794 006:393 JLINK_ReadMemU32(0xE0001038, 0x0001 Items, ...) -- CPU_ReadMem(4 bytes @ 0xE0001038) -- Data:  00 02 00 00  returns 0x01 (0001ms, 0268ms total)
T1794 006:394 JLINK_ReadMemU32(0xE0001048, 0x0001 Items, ...) -- CPU_ReadMem(4 bytes @ 0xE0001048) -- Data:  00 00 00 00  returns 0x01 (0001ms, 0269ms total)
T1794 006:395 JLINK_ReadMemU32(0xE0001058, 0x0001 Items, ...) -- CPU_ReadMem(4 bytes @ 0xE0001058) -- Data:  00 00 00 00  returns 0x01 (0001ms, 0270ms total)
T1794 006:396 JLINK_ReadReg(R0)  returns 0x00000000 (0000ms, 0270ms total)
T1794 006:396 JLINK_ReadReg(R1)  returns 0x2000B508 (0000ms, 0270ms total)
T1794 006:396 JLINK_ReadReg(R2)  returns 0x2000B508 (0000ms, 0270ms total)
T1794 006:396 JLINK_ReadReg(R3)  returns 0x2000B508 (0000ms, 0270ms total)
T1794 006:396 JLINK_ReadReg(R4)  returns 0x00000000 (0000ms, 0270ms total)
T1794 006:396 JLINK_ReadReg(R5)  returns 0x2000B4A4 (0000ms, 0270ms total)
T1794 006:396 JLINK_ReadReg(R6)  returns 0x00000000 (0000ms, 0270ms total)
T1794 006:396 JLINK_ReadReg(R7)  returns 0x00000000 (0000ms, 0270ms total)
T1794 006:396 JLINK_ReadReg(R8)  returns 0x00000000 (0000ms, 0270ms total)
T1794 006:396 JLINK_ReadReg(R9)  returns 0x20000160 (0000ms, 0270ms total)
T1794 006:396 JLINK_ReadReg(R10)  returns 0x0802FF20 (0000ms, 0270ms total)
T1794 006:396 JLINK_ReadReg(R11)  returns 0x00000000 (0000ms, 0270ms total)
T1794 006:396 JLINK_ReadReg(R12)  returns 0x2000B4E4 (0000ms, 0270ms total)
T1794 006:396 JLINK_ReadReg(R13 (SP))  returns 0x2000B900 (0000ms, 0270ms total)
T1794 006:396 JLINK_ReadReg(R14)  returns 0x0800020B (0000ms, 0270ms total)
T1794 006:396 JLINK_ReadReg(R15 (PC))  returns 0x08002E06 (0000ms, 0270ms total)
T1794 006:396 JLINK_ReadReg(XPSR)  returns 0x61000000 (0000ms, 0270ms total)
T1794 006:396 JLINK_ReadReg(MSP)  returns 0x2000B900 (0000ms, 0270ms total)
T1794 006:396 JLINK_ReadReg(PSP)  returns 0x20000800 (0000ms, 0270ms total)
T1794 006:396 JLINK_ReadReg(CFBP)  returns 0x00000000 (0000ms, 0270ms total)
T0F8C 006:397 JLINK_ReadMem (0x08002E06, 0x0002 Bytes, ...) -- CPU_ReadMem(64 bytes @ 0x08002E00) -- Updating C cache (64 bytes @ 0x08002E00) -- Read from C cache (2 bytes @ 0x08002E06) -- Data:  17 F0  returns 0x00 (0001ms, 0271ms total)
T0F8C 006:398 JLINK_ReadMem (0x08002E08, 0x003C Bytes, ...) -- CPU_ReadMem(64 bytes @ 0x08002E40) -- Updating C cache (64 bytes @ 0x08002E40) -- Read from C cache (60 bytes @ 0x08002E08) -- Data:  5B FC 1A F0 2D FE 02 21 12 48 1B F0 52 FD 12 49 ...  returns 0x00 (0002ms, 0273ms total)
T1794 006:847 JLINK_Step() -- Read from C cache (2 bytes @ 0x08002E06) -- CPU_ReadMem(4 bytes @ 0xE0001004) -- Read from C cache (2 bytes @ 0x08002E08) -- Simulated  returns 0x00 (0001ms, 0274ms total)
T1794 006:848 JLINK_ReadReg(R15 (PC))  returns 0x0801A6C0 (0000ms, 0274ms total)
T1794 006:848 JLINK_ReadReg(XPSR)  returns 0x61000000 (0000ms, 0274ms total)
T1794 006:848 JLINK_SetBPEx(Addr = 0x08006EEE, Type = 0xFFFFFFF2)  returns 0x0000000C (0000ms, 0274ms total)
T1794 006:848 JLINK_SetBPEx(Addr = 0x08002E06, Type = 0xFFFFFFF2)  returns 0x0000000D (0000ms, 0274ms total)
T1794 006:848 JLINK_SetBPEx(Addr = 0x080070A2, Type = 0xFFFFFFF2)  returns 0x0000000E (0000ms, 0274ms total)
T1794 006:848 JLINK_SetBPEx(Addr = 0x080070A6, Type = 0xFFFFFFF2)  returns 0x0000000F (0000ms, 0274ms total)
T1794 006:848 JLINK_SetBPEx(Addr = 0x08006E4E, Type = 0xFFFFFFF2)  returns 0x00000010 (0000ms, 0274ms total)
T1794 006:848 JLINK_Go() -- CPU_WriteMem(4 bytes @ 0xE0001004) (0002ms, 0276ms total)
T1794 006:952 JLINK_IsHalted()  returns TRUE (0005ms, 0281ms total)
T1794 006:957 JLINK_Halt()  returns 0x00 (0000ms, 0276ms total)
T1794 006:957 JLINK_IsHalted()  returns TRUE (0000ms, 0276ms total)
T1794 006:957 JLINK_IsHalted()  returns TRUE (0000ms, 0276ms total)
T1794 006:957 JLINK_IsHalted()  returns TRUE (0000ms, 0276ms total)
T1794 006:957 JLINK_ReadReg(R15 (PC))  returns 0x080070A2 (0000ms, 0276ms total)
T1794 006:957 JLINK_ReadReg(XPSR)  returns 0x01000000 (0000ms, 0276ms total)
T1794 006:957 JLINK_ClrBPEx(BPHandle = 0x0000000C)  returns 0x00 (0000ms, 0276ms total)
T1794 006:957 JLINK_ClrBPEx(BPHandle = 0x0000000D)  returns 0x00 (0000ms, 0276ms total)
T1794 006:957 JLINK_ClrBPEx(BPHandle = 0x0000000E)  returns 0x00 (0000ms, 0276ms total)
T1794 006:957 JLINK_ClrBPEx(BPHandle = 0x0000000F)  returns 0x00 (0000ms, 0276ms total)
T1794 006:957 JLINK_ClrBPEx(BPHandle = 0x00000010)  returns 0x00 (0000ms, 0276ms total)
T1794 006:957 JLINK_ReadMemU32(0xE000ED30, 0x0001 Items, ...) -- CPU_ReadMem(4 bytes @ 0xE000ED30) -- Data:  03 00 00 00  returns 0x01 (0001ms, 0277ms total)
T1794 006:958 JLINK_ReadMemU32(0xE0001028, 0x0001 Items, ...) -- CPU_ReadMem(4 bytes @ 0xE0001028) -- Data:  00 00 00 00  returns 0x01 (0001ms, 0278ms total)
T1794 006:959 JLINK_ReadMemU32(0xE0001038, 0x0001 Items, ...) -- CPU_ReadMem(4 bytes @ 0xE0001038) -- Data:  00 02 00 00  returns 0x01 (0000ms, 0278ms total)
T1794 006:959 JLINK_ReadMemU32(0xE0001048, 0x0001 Items, ...) -- CPU_ReadMem(4 bytes @ 0xE0001048) -- Data:  00 00 00 00  returns 0x01 (0001ms, 0279ms total)
T1794 006:960 JLINK_ReadMemU32(0xE0001058, 0x0001 Items, ...) -- CPU_ReadMem(4 bytes @ 0xE0001058) -- Data:  00 00 00 00  returns 0x01 (0001ms, 0280ms total)
T1794 006:961 JLINK_ReadReg(R0)  returns 0x00000000 (0000ms, 0280ms total)
T1794 006:961 JLINK_ReadReg(R1)  returns 0x01010101 (0000ms, 0280ms total)
T1794 006:961 JLINK_ReadReg(R2)  returns 0x02020202 (0000ms, 0280ms total)
T1794 006:962 JLINK_ReadReg(R3)  returns 0x03030303 (0000ms, 0280ms total)
T1794 006:962 JLINK_ReadReg(R4)  returns 0x00000000 (0000ms, 0280ms total)
T1794 006:962 JLINK_ReadReg(R5)  returns 0x05050505 (0000ms, 0280ms total)
T1794 006:962 JLINK_ReadReg(R6)  returns 0x06060606 (0000ms, 0280ms total)
T1794 006:962 JLINK_ReadReg(R7)  returns 0x07070707 (0000ms, 0280ms total)
T1794 006:962 JLINK_ReadReg(R8)  returns 0x08080808 (0000ms, 0280ms total)
T1794 006:962 JLINK_ReadReg(R9)  returns 0x09090909 (0000ms, 0280ms total)
T1794 006:962 JLINK_ReadReg(R10)  returns 0x10101010 (0000ms, 0280ms total)
T1794 006:962 JLINK_ReadReg(R11)  returns 0x11111111 (0000ms, 0280ms total)
T1794 006:962 JLINK_ReadReg(R12)  returns 0x12121212 (0000ms, 0280ms total)
T1794 006:962 JLINK_ReadReg(R13 (SP))  returns 0x200031C4 (0000ms, 0280ms total)
T1794 006:962 JLINK_ReadReg(R14)  returns 0xFFFFFFFE (0000ms, 0280ms total)
T1794 006:962 JLINK_ReadReg(R15 (PC))  returns 0x080070A2 (0000ms, 0280ms total)
T1794 006:962 JLINK_ReadReg(XPSR)  returns 0x01000000 (0000ms, 0280ms total)
T1794 006:962 JLINK_ReadReg(MSP)  returns 0x2000B8D8 (0000ms, 0280ms total)
T1794 006:962 JLINK_ReadReg(PSP)  returns 0x200031C4 (0000ms, 0280ms total)
T1794 006:962 JLINK_ReadReg(CFBP)  returns 0x02000000 (0000ms, 0280ms total)
T0F8C 006:962 JLINK_ReadMem (0x080070A2, 0x0002 Bytes, ...) -- CPU_ReadMem(64 bytes @ 0x08007080) -- Updating C cache (64 bytes @ 0x08007080) -- Read from C cache (2 bytes @ 0x080070A2) -- Data:  13 F0  returns 0x00 (0002ms, 0282ms total)
T0F8C 006:964 JLINK_ReadMem (0x080070A4, 0x003C Bytes, ...) -- CPU_ReadMem(64 bytes @ 0x080070C0) -- Updating C cache (64 bytes @ 0x080070C0) -- Read from C cache (60 bytes @ 0x080070A4) -- Data:  47 F9 13 F0 3D FB FF F7 D6 FC 16 F0 DB FD 00 BF ...  returns 0x00 (0001ms, 0283ms total)
T1794 008:305 JLINK_Step() -- Read from C cache (2 bytes @ 0x080070A2) -- CPU_ReadMem(4 bytes @ 0xE0001004) -- Read from C cache (2 bytes @ 0x080070A4) -- Simulated  returns 0x00 (0002ms, 0285ms total)
T1794 008:307 JLINK_ReadReg(R15 (PC))  returns 0x0801A334 (0000ms, 0285ms total)
T1794 008:307 JLINK_ReadReg(XPSR)  returns 0x01000000 (0000ms, 0285ms total)
T1794 008:307 JLINK_SetBPEx(Addr = 0x08006EEE, Type = 0xFFFFFFF2)  returns 0x00000011 (0000ms, 0285ms total)
T1794 008:307 JLINK_SetBPEx(Addr = 0x08002E06, Type = 0xFFFFFFF2)  returns 0x00000012 (0000ms, 0285ms total)
T1794 008:307 JLINK_SetBPEx(Addr = 0x080070A2, Type = 0xFFFFFFF2)  returns 0x00000013 (0000ms, 0285ms total)
T1794 008:307 JLINK_SetBPEx(Addr = 0x080070A6, Type = 0xFFFFFFF2)  returns 0x00000014 (0000ms, 0285ms total)
T1794 008:307 JLINK_SetBPEx(Addr = 0x08006E4E, Type = 0xFFFFFFF2)  returns 0x00000015 (0000ms, 0285ms total)
T1794 008:307 JLINK_Go() -- CPU_WriteMem(4 bytes @ 0xE0002000) -- CPU_WriteMem(4 bytes @ 0xE0001004) (0004ms, 0289ms total)
T1794 008:413 JLINK_IsHalted()  returns TRUE (0004ms, 0293ms total)
T1794 008:417 JLINK_Halt()  returns 0x00 (0000ms, 0289ms total)
T1794 008:417 JLINK_IsHalted()  returns TRUE (0000ms, 0289ms total)
T1794 008:417 JLINK_IsHalted()  returns TRUE (0000ms, 0289ms total)
T1794 008:417 JLINK_IsHalted()  returns TRUE (0000ms, 0289ms total)
T1794 008:417 JLINK_ReadReg(R15 (PC))  returns 0x080070A6 (0000ms, 0289ms total)
T1794 008:417 JLINK_ReadReg(XPSR)  returns 0x61000000 (0000ms, 0289ms total)
T1794 008:417 JLINK_ClrBPEx(BPHandle = 0x00000011)  returns 0x00 (0001ms, 0290ms total)
T1794 008:418 JLINK_ClrBPEx(BPHandle = 0x00000012)  returns 0x00 (0000ms, 0290ms total)
T1794 008:418 JLINK_ClrBPEx(BPHandle = 0x00000013)  returns 0x00 (0000ms, 0290ms total)
T1794 008:418 JLINK_ClrBPEx(BPHandle = 0x00000014)  returns 0x00 (0000ms, 0290ms total)
T1794 008:418 JLINK_ClrBPEx(BPHandle = 0x00000015)  returns 0x00 (0000ms, 0290ms total)
T1794 008:418 JLINK_ReadMemU32(0xE000ED30, 0x0001 Items, ...) -- CPU_ReadMem(4 bytes @ 0xE000ED30) -- Data:  03 00 00 00  returns 0x01 (0000ms, 0290ms total)
T1794 008:418 JLINK_ReadMemU32(0xE0001028, 0x0001 Items, ...) -- CPU_ReadMem(4 bytes @ 0xE0001028) -- Data:  00 00 00 00  returns 0x01 (0001ms, 0291ms total)
T1794 008:419 JLINK_ReadMemU32(0xE0001038, 0x0001 Items, ...) -- CPU_ReadMem(4 bytes @ 0xE0001038) -- Data:  00 02 00 00  returns 0x01 (0001ms, 0292ms total)
T1794 008:420 JLINK_ReadMemU32(0xE0001048, 0x0001 Items, ...) -- CPU_ReadMem(4 bytes @ 0xE0001048) -- Data:  00 00 00 00  returns 0x01 (0001ms, 0293ms total)
T1794 008:421 JLINK_ReadMemU32(0xE0001058, 0x0001 Items, ...) -- CPU_ReadMem(4 bytes @ 0xE0001058) -- Data:  00 00 00 00  returns 0x01 (0001ms, 0294ms total)
T1794 008:422 JLINK_ReadReg(R0)  returns 0x00000010 (0000ms, 0294ms total)
T1794 008:422 JLINK_ReadReg(R1)  returns 0x20003150 (0000ms, 0294ms total)
T1794 008:422 JLINK_ReadReg(R2)  returns 0x00000028 (0000ms, 0294ms total)
T1794 008:422 JLINK_ReadReg(R3)  returns 0x00000000 (0000ms, 0294ms total)
T1794 008:422 JLINK_ReadReg(R4)  returns 0x00000000 (0000ms, 0294ms total)
T1794 008:422 JLINK_ReadReg(R5)  returns 0x05050505 (0000ms, 0294ms total)
T1794 008:422 JLINK_ReadReg(R6)  returns 0x06060606 (0000ms, 0294ms total)
T1794 008:422 JLINK_ReadReg(R7)  returns 0x07070707 (0000ms, 0294ms total)
T1794 008:422 JLINK_ReadReg(R8)  returns 0x08080808 (0000ms, 0294ms total)
T1794 008:422 JLINK_ReadReg(R9)  returns 0x09090909 (0000ms, 0294ms total)
T1794 008:422 JLINK_ReadReg(R10)  returns 0x10101010 (0000ms, 0294ms total)
T1794 008:422 JLINK_ReadReg(R11)  returns 0x11111111 (0000ms, 0294ms total)
T1794 008:422 JLINK_ReadReg(R12)  returns 0x00000000 (0000ms, 0294ms total)
T1794 008:422 JLINK_ReadReg(R13 (SP))  returns 0x200031C4 (0000ms, 0294ms total)
T1794 008:422 JLINK_ReadReg(R14)  returns 0x0801A331 (0000ms, 0294ms total)
T1794 008:422 JLINK_ReadReg(R15 (PC))  returns 0x080070A6 (0000ms, 0294ms total)
T1794 008:422 JLINK_ReadReg(XPSR)  returns 0x61000000 (0000ms, 0294ms total)
T1794 008:422 JLINK_ReadReg(MSP)  returns 0x2000B8D8 (0000ms, 0294ms total)
T1794 008:422 JLINK_ReadReg(PSP)  returns 0x200031C4 (0000ms, 0294ms total)
T1794 008:422 JLINK_ReadReg(CFBP)  returns 0x02000000 (0000ms, 0294ms total)
T0F8C 008:423 JLINK_ReadMem (0x080070A6, 0x0002 Bytes, ...) -- CPU_ReadMem(64 bytes @ 0x08007080) -- Updating C cache (64 bytes @ 0x08007080) -- Read from C cache (2 bytes @ 0x080070A6) -- Data:  13 F0  returns 0x00 (0001ms, 0296ms total)
T0F8C 008:424 JLINK_ReadMem (0x080070A8, 0x003C Bytes, ...) -- CPU_ReadMem(64 bytes @ 0x080070C0) -- Updating C cache (64 bytes @ 0x080070C0) -- Read from C cache (60 bytes @ 0x080070A8) -- Data:  3D FB FF F7 D6 FC 16 F0 DB FD 00 BF 03 20 00 21 ...  returns 0x00 (0001ms, 0297ms total)
T1794 008:952 JLINK_Step() -- Read from C cache (2 bytes @ 0x080070A6) -- CPU_ReadMem(4 bytes @ 0xE0001004) -- Read from C cache (2 bytes @ 0x080070A8) -- Simulated  returns 0x00 (0002ms, 0299ms total)
T1794 008:954 JLINK_ReadReg(R15 (PC))  returns 0x0801A724 (0000ms, 0299ms total)
T1794 008:954 JLINK_ReadReg(XPSR)  returns 0x61000000 (0000ms, 0299ms total)
T1794 008:954 JLINK_SetBPEx(Addr = 0x08006EEE, Type = 0xFFFFFFF2)  returns 0x00000016 (0000ms, 0299ms total)
T1794 008:954 JLINK_SetBPEx(Addr = 0x08002E06, Type = 0xFFFFFFF2)  returns 0x00000017 (0000ms, 0299ms total)
T1794 008:954 JLINK_SetBPEx(Addr = 0x080070A2, Type = 0xFFFFFFF2)  returns 0x00000018 (0000ms, 0299ms total)
T1794 008:954 JLINK_SetBPEx(Addr = 0x080070A6, Type = 0xFFFFFFF2)  returns 0x00000019 (0000ms, 0299ms total)
T1794 008:954 JLINK_SetBPEx(Addr = 0x08006E4E, Type = 0xFFFFFFF2)  returns 0x0000001A (0000ms, 0299ms total)
T1794 008:954 JLINK_Go() -- CPU_WriteMem(4 bytes @ 0xE0001004) (0002ms, 0301ms total)
T1794 009:057 JLINK_IsHalted()  returns FALSE (0000ms, 0301ms total)
T1794 009:158 JLINK_IsHalted()  returns TRUE (0005ms, 0306ms total)
T1794 009:163 JLINK_Halt()  returns 0x00 (0000ms, 0301ms total)
T1794 009:163 JLINK_IsHalted()  returns TRUE (0000ms, 0301ms total)
T1794 009:163 JLINK_IsHalted()  returns TRUE (0000ms, 0301ms total)
T1794 009:163 JLINK_IsHalted()  returns TRUE (0000ms, 0301ms total)
T1794 009:163 JLINK_ReadReg(R15 (PC))  returns 0x08006E4E (0000ms, 0301ms total)
T1794 009:163 JLINK_ReadReg(XPSR)  returns 0x41000000 (0000ms, 0301ms total)
T1794 009:163 JLINK_ClrBPEx(BPHandle = 0x00000016)  returns 0x00 (0000ms, 0301ms total)
T1794 009:163 JLINK_ClrBPEx(BPHandle = 0x00000017)  returns 0x00 (0000ms, 0301ms total)
T1794 009:163 JLINK_ClrBPEx(BPHandle = 0x00000018)  returns 0x00 (0000ms, 0301ms total)
T1794 009:163 JLINK_ClrBPEx(BPHandle = 0x00000019)  returns 0x00 (0000ms, 0301ms total)
T1794 009:163 JLINK_ClrBPEx(BPHandle = 0x0000001A)  returns 0x00 (0000ms, 0301ms total)
T1794 009:163 JLINK_ReadMemU32(0xE000ED30, 0x0001 Items, ...) -- CPU_ReadMem(4 bytes @ 0xE000ED30) -- Data:  03 00 00 00  returns 0x01 (0001ms, 0302ms total)
T1794 009:164 JLINK_ReadMemU32(0xE0001028, 0x0001 Items, ...) -- CPU_ReadMem(4 bytes @ 0xE0001028) -- Data:  00 00 00 00  returns 0x01 (0001ms, 0303ms total)
T1794 009:165 JLINK_ReadMemU32(0xE0001038, 0x0001 Items, ...) -- CPU_ReadMem(4 bytes @ 0xE0001038) -- Data:  00 02 00 00  returns 0x01 (0000ms, 0303ms total)
T1794 009:165 JLINK_ReadMemU32(0xE0001048, 0x0001 Items, ...) -- CPU_ReadMem(4 bytes @ 0xE0001048) -- Data:  00 00 00 00  returns 0x01 (0001ms, 0304ms total)
T1794 009:166 JLINK_ReadMemU32(0xE0001058, 0x0001 Items, ...) -- CPU_ReadMem(4 bytes @ 0xE0001058) -- Data:  00 00 00 00  returns 0x01 (0001ms, 0305ms total)
T1794 009:167 JLINK_ReadReg(R0)  returns 0x00000000 (0000ms, 0305ms total)
T1794 009:167 JLINK_ReadReg(R1)  returns 0x42208000 (0000ms, 0305ms total)
T1794 009:167 JLINK_ReadReg(R2)  returns 0x02020202 (0000ms, 0305ms total)
T1794 009:167 JLINK_ReadReg(R3)  returns 0x03030303 (0000ms, 0305ms total)
T1794 009:167 JLINK_ReadReg(R4)  returns 0x00000000 (0000ms, 0305ms total)
T1794 009:167 JLINK_ReadReg(R5)  returns 0x00000000 (0000ms, 0305ms total)
T1794 009:167 JLINK_ReadReg(R6)  returns 0x06060606 (0000ms, 0305ms total)
T1794 009:168 JLINK_ReadReg(R7)  returns 0x07070707 (0000ms, 0305ms total)
T1794 009:168 JLINK_ReadReg(R8)  returns 0x08080808 (0000ms, 0305ms total)
T1794 009:168 JLINK_ReadReg(R9)  returns 0x09090909 (0000ms, 0305ms total)
T1794 009:168 JLINK_ReadReg(R10)  returns 0x10101010 (0000ms, 0305ms total)
T1794 009:168 JLINK_ReadReg(R11)  returns 0x11111111 (0000ms, 0305ms total)
T1794 009:168 JLINK_ReadReg(R12)  returns 0x12121212 (0000ms, 0305ms total)
T1794 009:168 JLINK_ReadReg(R13 (SP))  returns 0x200053CC (0000ms, 0305ms total)
T1794 009:168 JLINK_ReadReg(R14)  returns 0x08006E4F (0000ms, 0305ms total)
T1794 009:168 JLINK_ReadReg(R15 (PC))  returns 0x08006E4E (0000ms, 0305ms total)
T1794 009:168 JLINK_ReadReg(XPSR)  returns 0x41000000 (0000ms, 0305ms total)
T1794 009:168 JLINK_ReadReg(MSP)  returns 0x2000B8D8 (0000ms, 0305ms total)
T1794 009:168 JLINK_ReadReg(PSP)  returns 0x200053CC (0000ms, 0305ms total)
T1794 009:168 JLINK_ReadReg(CFBP)  returns 0x02000000 (0000ms, 0305ms total)
T0F8C 009:168 JLINK_ReadMem (0x08006E4E, 0x0002 Bytes, ...) -- CPU_ReadMem(64 bytes @ 0x08006E40) -- Updating C cache (64 bytes @ 0x08006E40) -- Read from C cache (2 bytes @ 0x08006E4E) -- Data:  FF F7  returns 0x00 (0001ms, 0306ms total)
T0F8C 009:169 JLINK_ReadMem (0x08006E50, 0x003C Bytes, ...) -- CPU_ReadMem(64 bytes @ 0x08006E80) -- Updating C cache (64 bytes @ 0x08006E80) -- Read from C cache (60 bytes @ 0x08006E50) -- Data:  35 FD FF F7 73 F8 06 F0 4B FE FF F7 8B FF 05 F0 ...  returns 0x00 (0002ms, 0308ms total)
T1794 011:064 JLINK_Step() -- Read from C cache (2 bytes @ 0x08006E4E) -- CPU_ReadMem(4 bytes @ 0xE0001004) -- Read from C cache (2 bytes @ 0x08006E50) -- Simulated  returns 0x00 (0002ms, 0310ms total)
T1794 011:066 JLINK_ReadReg(R15 (PC))  returns 0x080068BC (0000ms, 0310ms total)
T1794 011:066 JLINK_ReadReg(XPSR)  returns 0x41000000 (0000ms, 0310ms total)
T1794 011:066 JLINK_SetBPEx(Addr = 0x08006E52, Type = 0xFFFFFFF2)  returns 0x0000001B (0000ms, 0310ms total)
T1794 011:066 JLINK_SetBPEx(Addr = 0x08006EEE, Type = 0xFFFFFFF2)  returns 0x0000001C (0000ms, 0310ms total)
T1794 011:066 JLINK_SetBPEx(Addr = 0x08002E06, Type = 0xFFFFFFF2)  returns 0x0000001D (0000ms, 0310ms total)
T1794 011:066 JLINK_SetBPEx(Addr = 0x080070A2, Type = 0xFFFFFFF2)  returns 0x0000001E (0000ms, 0310ms total)
T1794 011:066 JLINK_SetBPEx(Addr = 0x080070A6, Type = 0xFFFFFFF2)  returns 0x0000001F (0000ms, 0310ms total)
T1794 011:066 JLINK_SetBPEx(Addr = 0x08006E4E, Type = 0xFFFFFFF2)  returns 0x00000020 (0000ms, 0310ms total)
T1794 011:066 JLINK_Go() -- CPU_WriteMem(4 bytes @ 0xE0002000) -- CPU_WriteMem(4 bytes @ 0xE0002008) -- CPU_WriteMem(4 bytes @ 0xE000200C) -- CPU_WriteMem(4 bytes @ 0xE0002010) -- CPU_WriteMem(4 bytes @ 0xE0002014) -- CPU_WriteMem(4 bytes @ 0xE0002018) -- CPU_WriteMem(4 bytes @ 0xE000201C) -- CPU_WriteMem(4 bytes @ 0xE0001004) (0007ms, 0317ms total)
T1794 011:174 JLINK_IsHalted()  returns TRUE (0005ms, 0322ms total)
T1794 011:179 JLINK_Halt()  returns 0x00 (0000ms, 0317ms total)
T1794 011:179 JLINK_IsHalted()  returns TRUE (0000ms, 0317ms total)
T1794 011:179 JLINK_IsHalted()  returns TRUE (0000ms, 0317ms total)
T1794 011:179 JLINK_IsHalted()  returns TRUE (0000ms, 0317ms total)
T1794 011:179 JLINK_ReadReg(R15 (PC))  returns 0x08006E52 (0000ms, 0317ms total)
T1794 011:179 JLINK_ReadReg(XPSR)  returns 0x61000000 (0000ms, 0317ms total)
T1794 011:179 JLINK_ClrBPEx(BPHandle = 0x0000001B)  returns 0x00 (0000ms, 0317ms total)
T1794 011:179 JLINK_ClrBPEx(BPHandle = 0x0000001C)  returns 0x00 (0000ms, 0317ms total)
T1794 011:179 JLINK_ClrBPEx(BPHandle = 0x0000001D)  returns 0x00 (0000ms, 0317ms total)
T1794 011:179 JLINK_ClrBPEx(BPHandle = 0x0000001E)  returns 0x00 (0000ms, 0317ms total)
T1794 011:179 JLINK_ClrBPEx(BPHandle = 0x0000001F)  returns 0x00 (0000ms, 0317ms total)
T1794 011:179 JLINK_ClrBPEx(BPHandle = 0x00000020)  returns 0x00 (0000ms, 0317ms total)
T1794 011:179 JLINK_ReadMemU32(0xE000ED30, 0x0001 Items, ...) -- CPU_ReadMem(4 bytes @ 0xE000ED30) -- Data:  03 00 00 00  returns 0x01 (0001ms, 0318ms total)
T1794 011:180 JLINK_ReadMemU32(0xE0001028, 0x0001 Items, ...) -- CPU_ReadMem(4 bytes @ 0xE0001028) -- Data:  00 00 00 00  returns 0x01 (0001ms, 0319ms total)
T1794 011:181 JLINK_ReadMemU32(0xE0001038, 0x0001 Items, ...) -- CPU_ReadMem(4 bytes @ 0xE0001038) -- Data:  00 02 00 00  returns 0x01 (0000ms, 0319ms total)
T1794 011:181 JLINK_ReadMemU32(0xE0001048, 0x0001 Items, ...) -- CPU_ReadMem(4 bytes @ 0xE0001048) -- Data:  00 00 00 00  returns 0x01 (0001ms, 0320ms total)
T1794 011:182 JLINK_ReadMemU32(0xE0001058, 0x0001 Items, ...) -- CPU_ReadMem(4 bytes @ 0xE0001058) -- Data:  00 00 00 00  returns 0x01 (0001ms, 0321ms total)
T1794 011:183 JLINK_ReadReg(R0)  returns 0x20002E54 (0000ms, 0321ms total)
T1794 011:183 JLINK_ReadReg(R1)  returns 0x00000000 (0000ms, 0321ms total)
T1794 011:183 JLINK_ReadReg(R2)  returns 0x000000FF (0000ms, 0321ms total)
T1794 011:183 JLINK_ReadReg(R3)  returns 0x0000FFFF (0000ms, 0321ms total)
T1794 011:183 JLINK_ReadReg(R4)  returns 0x00000000 (0001ms, 0322ms total)
T1794 011:184 JLINK_ReadReg(R5)  returns 0x00000000 (0000ms, 0322ms total)
T1794 011:184 JLINK_ReadReg(R6)  returns 0x06060606 (0000ms, 0322ms total)
T1794 011:184 JLINK_ReadReg(R7)  returns 0x07070707 (0000ms, 0322ms total)
T1794 011:184 JLINK_ReadReg(R8)  returns 0x08080808 (0000ms, 0322ms total)
T1794 011:184 JLINK_ReadReg(R9)  returns 0x09090909 (0000ms, 0322ms total)
T1794 011:184 JLINK_ReadReg(R10)  returns 0x10101010 (0000ms, 0322ms total)
T1794 011:184 JLINK_ReadReg(R11)  returns 0x11111111 (0000ms, 0322ms total)
T1794 011:184 JLINK_ReadReg(R12)  returns 0xC0000000 (0000ms, 0322ms total)
T1794 011:184 JLINK_ReadReg(R13 (SP))  returns 0x200053CC (0000ms, 0322ms total)
T1794 011:184 JLINK_ReadReg(R14)  returns 0x080068E7 (0000ms, 0322ms total)
T1794 011:184 JLINK_ReadReg(R15 (PC))  returns 0x08006E52 (0000ms, 0322ms total)
T1794 011:184 JLINK_ReadReg(XPSR)  returns 0x61000000 (0000ms, 0322ms total)
T1794 011:184 JLINK_ReadReg(MSP)  returns 0x2000B8D8 (0000ms, 0322ms total)
T1794 011:184 JLINK_ReadReg(PSP)  returns 0x200053CC (0000ms, 0322ms total)
T1794 011:184 JLINK_ReadReg(CFBP)  returns 0x02000000 (0000ms, 0322ms total)
T0F8C 011:184 JLINK_ReadMem (0x08006E52, 0x0002 Bytes, ...) -- CPU_ReadMem(64 bytes @ 0x08006E40) -- Updating C cache (64 bytes @ 0x08006E40) -- Read from C cache (2 bytes @ 0x08006E52) -- Data:  FF F7  returns 0x00 (0001ms, 0323ms total)
T0F8C 011:185 JLINK_ReadMem (0x08006E54, 0x003C Bytes, ...) -- CPU_ReadMem(64 bytes @ 0x08006E80) -- Updating C cache (64 bytes @ 0x08006E80) -- Read from C cache (60 bytes @ 0x08006E54) -- Data:  73 F8 06 F0 4B FE FF F7 8B FF 05 F0 71 FD 28 B1 ...  returns 0x00 (0002ms, 0325ms total)
T1794 011:633 JLINK_SetBPEx(Addr = 0x08006E56, Type = 0xFFFFFFF2)  returns 0x00000021 (0000ms, 0325ms total)
T1794 011:633 JLINK_SetBPEx(Addr = 0x08006EEE, Type = 0xFFFFFFF2)  returns 0x00000022 (0000ms, 0325ms total)
T1794 011:633 JLINK_SetBPEx(Addr = 0x08002E06, Type = 0xFFFFFFF2)  returns 0x00000023 (0000ms, 0325ms total)
T1794 011:633 JLINK_SetBPEx(Addr = 0x080070A2, Type = 0xFFFFFFF2)  returns 0x00000024 (0000ms, 0325ms total)
T1794 011:633 JLINK_SetBPEx(Addr = 0x080070A6, Type = 0xFFFFFFF2)  returns 0x00000025 (0000ms, 0325ms total)
T1794 011:633 JLINK_SetBPEx(Addr = 0x08006E4E, Type = 0xFFFFFFF2)  returns 0x00000026 (0000ms, 0325ms total)
T1794 011:633 JLINK_Go() -- CPU_WriteMem(4 bytes @ 0xE0002000) -- CPU_WriteMem(4 bytes @ 0xE0002008) (0002ms, 0327ms total)
T1794 011:736 JLINK_IsHalted()  returns TRUE (0005ms, 0332ms total)
T1794 011:741 JLINK_Halt()  returns 0x00 (0000ms, 0327ms total)
T1794 011:741 JLINK_IsHalted()  returns TRUE (0000ms, 0327ms total)
T1794 011:741 JLINK_IsHalted()  returns TRUE (0000ms, 0327ms total)
T1794 011:741 JLINK_IsHalted()  returns TRUE (0000ms, 0327ms total)
T1794 011:741 JLINK_ReadReg(R15 (PC))  returns 0x08006E56 (0000ms, 0327ms total)
T1794 011:741 JLINK_ReadReg(XPSR)  returns 0x61000000 (0000ms, 0327ms total)
T1794 011:741 JLINK_ClrBPEx(BPHandle = 0x00000021)  returns 0x00 (0000ms, 0327ms total)
T1794 011:741 JLINK_ClrBPEx(BPHandle = 0x00000022)  returns 0x00 (0000ms, 0327ms total)
T1794 011:741 JLINK_ClrBPEx(BPHandle = 0x00000023)  returns 0x00 (0000ms, 0327ms total)
T1794 011:741 JLINK_ClrBPEx(BPHandle = 0x00000024)  returns 0x00 (0000ms, 0327ms total)
T1794 011:741 JLINK_ClrBPEx(BPHandle = 0x00000025)  returns 0x00 (0000ms, 0327ms total)
T1794 011:741 JLINK_ClrBPEx(BPHandle = 0x00000026)  returns 0x00 (0000ms, 0327ms total)
T1794 011:741 JLINK_ReadMemU32(0xE000ED30, 0x0001 Items, ...) -- CPU_ReadMem(4 bytes @ 0xE000ED30) -- Data:  03 00 00 00  returns 0x01 (0001ms, 0328ms total)
T1794 011:742 JLINK_ReadMemU32(0xE0001028, 0x0001 Items, ...) -- CPU_ReadMem(4 bytes @ 0xE0001028) -- Data:  00 00 00 00  returns 0x01 (0001ms, 0329ms total)
T1794 011:743 JLINK_ReadMemU32(0xE0001038, 0x0001 Items, ...) -- CPU_ReadMem(4 bytes @ 0xE0001038) -- Data:  00 02 00 00  returns 0x01 (0001ms, 0330ms total)
T1794 011:744 JLINK_ReadMemU32(0xE0001048, 0x0001 Items, ...) -- CPU_ReadMem(4 bytes @ 0xE0001048) -- Data:  00 00 00 00  returns 0x01 (0000ms, 0330ms total)
T1794 011:744 JLINK_ReadMemU32(0xE0001058, 0x0001 Items, ...) -- CPU_ReadMem(4 bytes @ 0xE0001058) -- Data:  00 00 00 00  returns 0x01 (0001ms, 0331ms total)
T1794 011:745 JLINK_ReadReg(R0)  returns 0x00000000 (0000ms, 0331ms total)
T1794 011:745 JLINK_ReadReg(R1)  returns 0x20002DE0 (0000ms, 0331ms total)
T1794 011:745 JLINK_ReadReg(R2)  returns 0x00000001 (0000ms, 0331ms total)
T1794 011:746 JLINK_ReadReg(R3)  returns 0x0000000A (0000ms, 0331ms total)
T1794 011:746 JLINK_ReadReg(R4)  returns 0x00000000 (0000ms, 0331ms total)
T1794 011:746 JLINK_ReadReg(R5)  returns 0x00000000 (0000ms, 0331ms total)
T1794 011:746 JLINK_ReadReg(R6)  returns 0x06060606 (0000ms, 0331ms total)
T1794 011:746 JLINK_ReadReg(R7)  returns 0x07070707 (0000ms, 0331ms total)
T1794 011:746 JLINK_ReadReg(R8)  returns 0x08080808 (0000ms, 0331ms total)
T1794 011:746 JLINK_ReadReg(R9)  returns 0x09090909 (0000ms, 0331ms total)
T1794 011:746 JLINK_ReadReg(R10)  returns 0x10101010 (0000ms, 0331ms total)
T1794 011:746 JLINK_ReadReg(R11)  returns 0x11111111 (0000ms, 0331ms total)
T1794 011:746 JLINK_ReadReg(R12)  returns 0xC0000000 (0000ms, 0331ms total)
T1794 011:746 JLINK_ReadReg(R13 (SP))  returns 0x200053CC (0000ms, 0331ms total)
T1794 011:746 JLINK_ReadReg(R14)  returns 0x08005F1F (0000ms, 0331ms total)
T1794 011:746 JLINK_ReadReg(R15 (PC))  returns 0x08006E56 (0000ms, 0331ms total)
T1794 011:746 JLINK_ReadReg(XPSR)  returns 0x61000000 (0000ms, 0331ms total)
T1794 011:746 JLINK_ReadReg(MSP)  returns 0x2000B8D8 (0000ms, 0331ms total)
T1794 011:746 JLINK_ReadReg(PSP)  returns 0x200053CC (0000ms, 0331ms total)
T1794 011:746 JLINK_ReadReg(CFBP)  returns 0x02000000 (0000ms, 0331ms total)
T0F8C 011:746 JLINK_ReadMem (0x08006E56, 0x0002 Bytes, ...) -- CPU_ReadMem(64 bytes @ 0x08006E40) -- Updating C cache (64 bytes @ 0x08006E40) -- Read from C cache (2 bytes @ 0x08006E56) -- Data:  06 F0  returns 0x00 (0001ms, 0332ms total)
T0F8C 011:747 JLINK_ReadMem (0x08006E58, 0x003C Bytes, ...) -- CPU_ReadMem(64 bytes @ 0x08006E80) -- Updating C cache (64 bytes @ 0x08006E80) -- Read from C cache (60 bytes @ 0x08006E58) -- Data:  4B FE FF F7 8B FF 05 F0 71 FD 28 B1 01 20 B0 49 ...  returns 0x00 (0002ms, 0334ms total)
T1794 012:177 JLINK_SetBPEx(Addr = 0x08006E5A, Type = 0xFFFFFFF2)  returns 0x00000027 (0000ms, 0334ms total)
T1794 012:177 JLINK_SetBPEx(Addr = 0x08006EEE, Type = 0xFFFFFFF2)  returns 0x00000028 (0000ms, 0334ms total)
T1794 012:177 JLINK_SetBPEx(Addr = 0x08002E06, Type = 0xFFFFFFF2)  returns 0x00000029 (0000ms, 0334ms total)
T1794 012:177 JLINK_SetBPEx(Addr = 0x080070A2, Type = 0xFFFFFFF2)  returns 0x0000002A (0000ms, 0334ms total)
T1794 012:177 JLINK_SetBPEx(Addr = 0x080070A6, Type = 0xFFFFFFF2)  returns 0x0000002B (0000ms, 0334ms total)
T1794 012:177 JLINK_SetBPEx(Addr = 0x08006E4E, Type = 0xFFFFFFF2)  returns 0x0000002C (0000ms, 0334ms total)
T1794 012:177 JLINK_Go() -- CPU_WriteMem(4 bytes @ 0xE0002008) (0002ms, 0336ms total)
T1794 012:280 JLINK_IsHalted()  returns TRUE (0005ms, 0341ms total)
T1794 012:285 JLINK_Halt()  returns 0x00 (0000ms, 0336ms total)
T1794 012:285 JLINK_IsHalted()  returns TRUE (0000ms, 0336ms total)
T1794 012:285 JLINK_IsHalted()  returns TRUE (0000ms, 0336ms total)
T1794 012:285 JLINK_IsHalted()  returns TRUE (0000ms, 0336ms total)
T1794 012:285 JLINK_ReadReg(R15 (PC))  returns 0x08006E5A (0000ms, 0336ms total)
T1794 012:285 JLINK_ReadReg(XPSR)  returns 0x61000000 (0000ms, 0336ms total)
T1794 012:285 JLINK_ClrBPEx(BPHandle = 0x00000027)  returns 0x00 (0000ms, 0336ms total)
T1794 012:285 JLINK_ClrBPEx(BPHandle = 0x00000028)  returns 0x00 (0000ms, 0336ms total)
T1794 012:285 JLINK_ClrBPEx(BPHandle = 0x00000029)  returns 0x00 (0000ms, 0336ms total)
T1794 012:285 JLINK_ClrBPEx(BPHandle = 0x0000002A)  returns 0x00 (0000ms, 0336ms total)
T1794 012:285 JLINK_ClrBPEx(BPHandle = 0x0000002B)  returns 0x00 (0000ms, 0336ms total)
T1794 012:285 JLINK_ClrBPEx(BPHandle = 0x0000002C)  returns 0x00 (0000ms, 0336ms total)
T1794 012:285 JLINK_ReadMemU32(0xE000ED30, 0x0001 Items, ...) -- CPU_ReadMem(4 bytes @ 0xE000ED30) -- Data:  03 00 00 00  returns 0x01 (0001ms, 0337ms total)
T1794 012:286 JLINK_ReadMemU32(0xE0001028, 0x0001 Items, ...) -- CPU_ReadMem(4 bytes @ 0xE0001028) -- Data:  00 00 00 00  returns 0x01 (0001ms, 0338ms total)
T1794 012:287 JLINK_ReadMemU32(0xE0001038, 0x0001 Items, ...) -- CPU_ReadMem(4 bytes @ 0xE0001038) -- Data:  00 02 00 00  returns 0x01 (0001ms, 0339ms total)
T1794 012:288 JLINK_ReadMemU32(0xE0001048, 0x0001 Items, ...) -- CPU_ReadMem(4 bytes @ 0xE0001048) -- Data:  00 00 00 00  returns 0x01 (0001ms, 0340ms total)
T1794 012:289 JLINK_ReadMemU32(0xE0001058, 0x0001 Items, ...) -- CPU_ReadMem(4 bytes @ 0xE0001058) -- Data:  00 00 00 00  returns 0x01 (0000ms, 0340ms total)
T1794 012:290 JLINK_ReadReg(R0)  returns 0x00000000 (0000ms, 0340ms total)
T1794 012:290 JLINK_ReadReg(R1)  returns 0x20008F48 (0000ms, 0340ms total)
T1794 012:290 JLINK_ReadReg(R2)  returns 0x00000000 (0000ms, 0340ms total)
T1794 012:290 JLINK_ReadReg(R3)  returns 0x0000000A (0000ms, 0340ms total)
T1794 012:290 JLINK_ReadReg(R4)  returns 0x00000000 (0000ms, 0340ms total)
T1794 012:290 JLINK_ReadReg(R5)  returns 0x00000000 (0000ms, 0340ms total)
T1794 012:290 JLINK_ReadReg(R6)  returns 0x06060606 (0000ms, 0340ms total)
T1794 012:290 JLINK_ReadReg(R7)  returns 0x07070707 (0000ms, 0340ms total)
T1794 012:290 JLINK_ReadReg(R8)  returns 0x08080808 (0000ms, 0340ms total)
T1794 012:290 JLINK_ReadReg(R9)  returns 0x09090909 (0000ms, 0340ms total)
T1794 012:290 JLINK_ReadReg(R10)  returns 0x10101010 (0000ms, 0340ms total)
T1794 012:290 JLINK_ReadReg(R11)  returns 0x11111111 (0000ms, 0340ms total)
T1794 012:290 JLINK_ReadReg(R12)  returns 0xC0000000 (0000ms, 0340ms total)
T1794 012:290 JLINK_ReadReg(R13 (SP))  returns 0x200053CC (0000ms, 0340ms total)
T1794 012:290 JLINK_ReadReg(R14)  returns 0x0800DB13 (0000ms, 0340ms total)
T1794 012:290 JLINK_ReadReg(R15 (PC))  returns 0x08006E5A (0000ms, 0340ms total)
T1794 012:290 JLINK_ReadReg(XPSR)  returns 0x61000000 (0000ms, 0340ms total)
T1794 012:290 JLINK_ReadReg(MSP)  returns 0x2000B8D8 (0000ms, 0340ms total)
T1794 012:290 JLINK_ReadReg(PSP)  returns 0x200053CC (0000ms, 0340ms total)
T1794 012:290 JLINK_ReadReg(CFBP)  returns 0x02000000 (0000ms, 0340ms total)
T1794 012:745 JLINK_ReadMem (0x08006E5A, 0x0002 Bytes, ...) -- CPU_ReadMem(64 bytes @ 0x08006E40) -- Updating C cache (64 bytes @ 0x08006E40) -- Read from C cache (2 bytes @ 0x08006E5A) -- Data:  FF F7  returns 0x00 (0001ms, 0341ms total)
T1794 012:746 JLINK_ReadMem (0x08006E5C, 0x003C Bytes, ...) -- CPU_ReadMem(64 bytes @ 0x08006E80) -- Updating C cache (64 bytes @ 0x08006E80) -- Read from C cache (60 bytes @ 0x08006E5C) -- Data:  8B FF 05 F0 71 FD 28 B1 01 20 B0 49 08 60 FF F7 ...  returns 0x00 (0002ms, 0343ms total)
T1794 012:748 JLINK_SetBPEx(Addr = 0x08006E5E, Type = 0xFFFFFFF2)  returns 0x0000002D (0000ms, 0343ms total)
T1794 012:748 JLINK_SetBPEx(Addr = 0x08006EEE, Type = 0xFFFFFFF2)  returns 0x0000002E (0000ms, 0343ms total)
T1794 012:748 JLINK_SetBPEx(Addr = 0x08002E06, Type = 0xFFFFFFF2)  returns 0x0000002F (0000ms, 0343ms total)
T1794 012:748 JLINK_SetBPEx(Addr = 0x080070A2, Type = 0xFFFFFFF2)  returns 0x00000030 (0000ms, 0343ms total)
T1794 012:748 JLINK_SetBPEx(Addr = 0x080070A6, Type = 0xFFFFFFF2)  returns 0x00000031 (0000ms, 0343ms total)
T1794 012:748 JLINK_SetBPEx(Addr = 0x08006E4E, Type = 0xFFFFFFF2)  returns 0x00000032 (0000ms, 0343ms total)
T1794 012:748 JLINK_Go() -- CPU_WriteMem(4 bytes @ 0xE0002000) -- CPU_WriteMem(4 bytes @ 0xE0002008) (0002ms, 0345ms total)
T1794 012:851 JLINK_IsHalted()  returns TRUE (0004ms, 0349ms total)
T1794 012:855 JLINK_Halt()  returns 0x00 (0000ms, 0345ms total)
T1794 012:855 JLINK_IsHalted()  returns TRUE (0000ms, 0345ms total)
T1794 012:855 JLINK_IsHalted()  returns TRUE (0000ms, 0345ms total)
T1794 012:855 JLINK_IsHalted()  returns TRUE (0000ms, 0345ms total)
T1794 012:855 JLINK_ReadReg(R15 (PC))  returns 0x08006E5E (0001ms, 0346ms total)
T1794 012:856 JLINK_ReadReg(XPSR)  returns 0x61000000 (0000ms, 0346ms total)
T1794 012:856 JLINK_ClrBPEx(BPHandle = 0x0000002D)  returns 0x00 (0000ms, 0346ms total)
